Index;Frequency (Hz);Z' (Ω);-Z'' (Ω);Z (Ω);-Phase (°);Time (s)
1;10000;-2997,19070739246;2050,51227569483;3631,49455861562;145,622222490863;218,499047448343
2;9261;-3562,82224934405;2259,43098947887;4218,85420187027;147,618401378626;217,164023451714
3;8576,5;-4459,10820968317;2662,60527380757;5193,56456297327;149,157894888825;215,919001454857
4;7942,7;-5778,43620146701;3343,72781325408;6676,13964979414;149,943914390182;214,688977457962
5;7355,7;-7494,69359659706;4425,15884524614;8703,58908224263;149,440743839052;213,483952461005
6;6812,1;-9475,04431306367;5900,48693503523;11162,0881023687;148,087836097959;212,25393046411
7;6308,7;-11571,3781467301;7822,59613500844;13967,4551191716;145,940135837989;211,063909467115
8;5842,4;-13784,6599505354;10212,1934019634;17155,34155973;143,467564045694;209,843885470195
9;5410,7;-16004,0648683587;13133,7458673355;20703,2696166182;140,625964256195;208,623865473275
10;5010,8;-18157,8355143958;16484,9153022595;24524,669683617;137,764701460976;207,41384247633
11;4640,5;-20142,2369540368;20439,7435408007;28696,5646990414;134,579972040987;206,208821479373
12;4297,5;-21948,6817291205;24924,6521216127;33211,1865646147;131,367188410234;204,99379548244
13;3979,9;-23827,1715105832;30013,545427411;38321,6258960657;128,445379116131;203,778775485508
14;3685,8;-25298,5008902081;35663,1168358636;43724,9591165083;125,350912482903;202,5937534885
15;3413,4;-26754,344385973;41934,1170664352;49741,9854616272;122,538242334766;201,413729491479
16;3161,1;-28591,5221967828;48590,1597935895;56377,9989915897;120,473494535321;200,178708494597
17;2927,5;-31845,344592224;50694,597716859;59867,0878686416;122,136226518255;198,983684497614
18;2711,2;-37419,2896384851;46527,621630196;59707,8119814444;128,807569335659;197,798663500606
19;2510,8;-39937,4593795077;38933,087019036;55774,4200016607;135,729590316798;196,588639503661
20;2325,2;-40021,8703114141;29559,7121453459;49754,6649605779;143,550833611049;195,363617506754
21;2153,4;-34810,9555046909;31327,3227598411;46831,6535523659;138,015094769797;194,233598509607
22;1994,3;-28438,2890183244;76489,7601460632;81605,2675352028;110,39473686266;192,183560514783
23;1846,9;-21160,838442849;80630,8011444258;83361,3050329485;104,705148208331;191,013539517737
24;1710,4;-12936,619448143;87358,5896085606;88311,2637274713;98,4235073233792;189,828515520729
25;1584;-4505,80487041975;96641,7236295532;96746,7054923383;92,6694141282186;188,653492523696
26;1466,9;4913,06772576739;106979,65961932;107092,417129989;87,3705245369382;187,433470526776
27;1358,5;13765,4609209933;119853,789335881;120641,695663386;83,4481664605723;186,253451529755
28;1258,1;21374,9172570784;133525,901514345;135225,934875546;80,9052158370384;185,033429532836
29;1165,1;29732,3697717212;149738,427296005;152661,751664663;78,7693088152173;183,793405535966
30;1079;39238,4140747272;166546,302610789;171106,177715547;76,7428405530423;182,653385538845
31;999,28;18315,1903893236;34078,621508025;38688,4820442001;61,74466888114;180,643346543919
32;925,43;18200,6677196346;33778,5387369316;38369,962009923;61,6831728952718;179,473325546873
33;857,04;19927,5474048286;27942,2442904792;34320,2004883495;54,5047049437131;178,303303549827
34;793,7;19990,2962811305;40509,6766993166;45173,5082951339;63,7350588710721;177,073281552933
35;735,04;16882,896675799;35250,8178495369;39085,1936061079;64,4085472892006;175,873258555963
36;680,72;19628,520568546;34038,2409806125;39292,2469294399;60,0296349666472;174,683236558967
37;630,41;17890,3986916062;35050,7693736373;39352,5450133602;62,9596034056608;173,473211562022
38;583,82;18155,3790529838;35855,4543634835;40189,9414800441;63,1446646654268;172,25818956509
39;540,68;20670,5210396042;37781,1821355464;43066,0906469121;61,3164215685303;171,043166568158
40;500,72;9889,35616346606;33113,2333691092;34558,4373125431;73,371603354811;169,888145571074
41;463,71;16494,1246672276;38938,0750528144;42287,4666698852;67,042539075644;168,698123574078
42;429,44;18303,368939361;36792,8651362392;41094,1387482917;63,551004936375;167,508102577083
43;397,71;4354,33473182281;30248,547453996;30560,3477407147;81,808438752132;166,3130815801
44;368,31;24416,4184010048;40517,9290882001;47306,0679525295;58,9265069701362;165,108057583142
45;341,1;18466,8032439754;42660,2488488459;46485,6930022255;66,5931393323497;163,87303658626
46;315,89;18176,1153014085;37010,8360070716;41233,1559475192;63,844228365226;162,623011589416
47;292,54;26433,7646999294;43951,2990495492;51288,0161865726;58,9759074902574;161,37798859256
48;270,92;19012,7119810139;41604,7984199239;45743,2231968353;65,4403750047499;160,117965595741
49;250,9;18060,1242371498;36979,7343202369;41154,2080212534;63,9700900685255;158,93794259872
50;232,36;29545,8685464035;49682,7421757315;57804,2664364973;59,260441047792;157,812922601561
51;215,19;13146,5956484328;47181,784540203;48979,115646789;74,4301904688296;156,622901604565
52;199,28;-8524,49201101489;37796,7419563765;38746,1051792663;102,709561845483;155,402877607645
53;184,55;11042,8286055959;51867,3077181661;53029,8187206359;77,9808797394666;154,187855610713
54;170,92;12254,0796370835;43081,0494607131;44789,9463092823;74,1219973761763;152,922833613907
55;158,28;17799,4322297408;47240,5194442179;50482,536238393;69,3544357538761;151,672808617063
56;146,59;27519,5052324297;57206,2217742274;63481,2962841798;64,3097512431456;150,427787620206
57;135,75;18627,5226313914;53519,669090438;56668,6825233566;70,8095463835063;149,147763623438
58;125,72;-3132,8227117186;70964,3272696558;71033,4451014301;92,5277636571653;147,947739626468
59;116,43;59020,0157876101;88753,7489919089;106586,06955737;56,3766432084598;146,702718629611
60;107,83;-87982,9803301474;1272,10305492656;87992,1762087827;179,171645952414;145,487697632679
61;99,856;5566,043752356;25247,0874535931;25853,3608635806;77,567291245327;140,602606645013
62;92,477;123584,984234775;-45612,8530602253;131733,749254332;-20,2581387465167;137,752552652208
63;85,642;23306,8440603128;91056,2228122948;93991,7267257816;75,64275926836;136,447526655503
64;79,313;21091,7511993107;180446,177735569;181674,668096656;83,333139785038;135,117502658861
65;73,452;117063,748682187;84834,2242832781;144570,975182683;35,9302420773845;133,762478662282
66;68,023;-447397,710915859;1352551,83757357;1424626,68269845;108,303205868438;132,507454665451
67;62,996;191908,566978842;37974,2001411694;195629,593763914;11,1928980962056;128,822385674755
68;58,34;7416,74704569376;-92838,1805860575;93133,9675482003;-85,4323996324637;127,507360678075
69;54,029;75792,1069177764;45729,1758648254;88518,9301579712;31,1046854758938;126,092335681647
70;50,036;424262,416059931;-1530923,82081224;1588624,0407382;-74,5104380001262;99,2618397493879
71;46,338;100777,592119859;-57219,6322066524;115888,780230621;-29,5871000870875;71,4563248195901
72;42,914;120537,808561413;57432,6264305522;133521,046548846;25,4763898291427;70,0112968232385
73;39,742;549716,073375309;242185,402119501;600700,865928252;23,7765875813371;68,5862728268363
74;36,805;96244,4090584993;112878,247811372;148339,088253856;49,5477924634264;67,2962488300933
75;34,085;326223,3932442;181638,248378904;373382,050417419;29,1086665978356;65,8862208336533
76;31,566;476997,891611832;-207953,647511303;520357,288903873;-23,5554421117189;64,4111948373774
77;29,233;193070,354489448;78593,8740244865;208454,21275872;22,1499483395672;62,9161678411519
78;27,073;158432,304747199;155286,207981665;221843,642182584;44,4254338941804;61,4261378449139
79;25,072;482106,792143366;139350,122075329;501842,022506263;16,1216256337172;59,9661128486001
80;23,219;114943,697741197;766129,219976513;774703,837186986;81,4674560083493;58,2710808528797
81;21,503;258412,564212768;149807,264640368;298695,948887907;30,1017824361558;56,6410508569951
82;19,914;519505,757672914;101633,615652348;529353,968612569;11,0692661997921;54,9660178612241
83;18,442;295322,569491652;-7646,37921220606;295421,541472873;-1,48314908382159;53,2609888655289
84;17,079;455024,189179689;124334,55624863;471705,516838819;15,282897463446;51,5009548699726
85;15,817;319503,307263622;-175669,018369194;364612,077922809;-28,8028351689951;49,7759218743279
86;14,648;542256,217620779;276558,730482338;608708,909869402;27,0222573914114;48,0058918787968
87;13,566;247084,608897921;166187,976222745;297773,819190422;33,9245962096638;46,160857883455
88;12,563;577513,924164714;97442,758963299;585676,893755001;9,57719630250302;44,2658218882395
89;11,635;443514,862047529;7828,37247262758;443583,945012225;1,01120880092868;42,3107868931755
90;10,775;484111,814788857;84086,799552814;491360,192808897;9,85356516248178;40,2757468983135
91;9,9785;534822,751861899;23044,3422959957;535318,986792912;2,46722369382186;38,1757099036156
92;9,241;407539,352569629;176570,864307798;444145,915229754;23,425198411453;36,0056699090944
93;8,5581;568592,997757368;-5456,78381275194;568619,18151632;-0,549850394453873;33,8156289146237
94;7,9256;720061,833128128;442687,943658636;845258,338609299;31,5828499405782;31,4955829204813
95;7,3399;468506,602011089;-33735,2648948143;469719,601704571;-4,11852909107832;29,2105429262505
96;6,7974;821856,489386406;-182967,232234818;841976,898268722;-12,5508923710445;26,9205009320323
97;6,2951;532054,113428554;13740,4976887074;532231,510616365;1,47935623894795;24,6304589378141
98;5,8299;411242,680213763;-113785,532370255;426693,905986694;-15,4660783297451;22,2804139437474
99;5,399;742892,709495292;149197,763023825;757726,56698348;11,3558458533114;19,9553719496175
100;5;543878,444392334;-6131,65533208592;543913,007264706;-0,645922066464951;16,7603139576843
