Index;Frequency (Hz);Z' (Ω);-Z'' (Ω);Z (Ω);-Phase (°);Time (s)
1;10000;-2118,65429488528;2172,55323414478;3034,58128519056;134,280384522209;215,566991455746
2;9261;-2551,80489598434;2313,80408937899;3444,61864234586;137,800385633287;214,356971458801
3;8576,5;-3253,16967167791;2612,2311260902;4172,15344502565;141,236222258855;213,141948461868
4;7942,7;-4282,81536783846;3139,07345527227;5310,0178561459;143,760587261588;211,886925465037
5;7355,7;-5659,75735369692;3958,81553050115;6906,88596309968;145,028466849124;210,621899468231
6;6812,1;-7248,00677824741;5063,82152648225;8841,71310943673;145,05991656494;209,351876471437
7;6308,7;-9015,11044488784;6549,88518195365;11143,3034702597;143,999899962061;208,05185447472
8;5842,4;-10833,1947779364;8337,55073289081;13670,144890243;142,417043141806;206,866831477711
9;5410,7;-12791,4676439488;10539,1232438901;16573,9181618619;140,514268328451;205,63180748083
10;5010,8;-14653,7677431185;13115,9496198074;19666,2412142886;138,169660812331;204,381787483986
11;4640,5;-16560,0603853735;16013,5131851304;23036,236769437;135,96126725606;203,181763487015
12;4297,5;-18366,0025557532;19426,6423976415;26733,9575207969;133,39243219516;201,936740490159
13;3979,9;-20237,0475028656;23233,0079428936;30810,8868698679;131,057403845405;200,726716493214
14;3685,8;-22141,1900023239;27506,5879561764;35310,6878396594;128,832025798308;199,501696496307
15;3413,4;-24112,9760818406;32333,6287585713;40334,838095876;126,713931295164;198,286674499374
16;3161,1;-26313,7862849623;37081,0012123916;45468,846472767;125,360650215157;197,091649502391
17;2927,5;-28922,9798662764;38512,7541864443;48164,0010731097;126,906455625227;195,891628505421
18;2711,2;-31960,5715213977;34953,9760857438;47363,0507482058;132,438596192012;194,706605508413
19;2510,8;-32513,0021640303;29537,6872749301;43926,874226034;137,745215533975;193,51158551143
20;2325,2;-31746,3565060418;22778,5930761572;39072,9504125022;144,339866655685;192,256561514599
21;2153,4;-27352,4848666144;24639,802642131;36814,1046695629;137,986682200678;191,106542517502
22;1994,3;-22288,329655822;60304,8089859135;64291,8317181437;110,284038519372;189,07150452264
23;1846,9;-15457,3569401299;65644,81953091;67440,1380100925;103,25004446499;187,881481525645
24;1710,4;-7052,47221399545;73515,9948194827;73853,4959133783;95,4796803054303;186,716459528586
25;1584;326,270930014952;82465,9497890956;82466,5952209585;89,7733143221488;185,501435531654
26;1466,9;8250,78638532994;93032,5032542003;93397,6559540931;84,9318612425442;184,276414534747
27;1358,5;16943,8254676863;104854,835992991;106215,017076666;80,8207417681748;183,076391537777
28;1258,1;23949,0566559603;118076,339027212;120480,617332331;78,5344132202299;181,881369540794
29;1165,1;31208,7428887016;133203,623834879;136810,785523061;76,813815965237;180,686347543811
30;1079;39987,2852555118;148250,725165602;153548,886333417;74,9049825181099;179,511325546777
31;999,28;17852,0700604751;34800,8453446483;39112,5969752232;62,8431716652008;177,421287552054
32;925,43;17028,166308869;33973,0825563999;38001,6945178299;63,3788156877389;176,336265554794
33;857,04;19109,7740473162;30508,2475948059;35999,1199259851;57,9377698699555;175,231245557584
34;793,7;13435,3153841348;37070,0104896809;39429,6002665031;70,077921296038;174,106224560424
35;735,04;18914,7869868244;34906,4216319178;39701,7309182127;61,548008578383;172,911202563441
36;680,72;17564,867163431;32990,3371197993;37374,950190562;61,9680644665893;171,691180566521
37;630,41;17086,9992269216;31472,2437412949;35811,5577529419;61,5014551015411;170,421155569728
38;583,82;17567,5075834686;30711,3136543287;35380,8155512247;60,2295492579943;169,156134572922
39;540,68;15334,2835264246;31531,424220292;35062,3867503168;64,0655341091281;167,876109576154
40;500,72;7807,55862368559;42319,3798473377;43033,5669254309;79,5469646598464;166,661088579221
41;463,71;14873,1718191513;31714,1153633399;35028,5077221572;64,8745308146538;165,426063582339
42;429,44;11884,5481609969;30126,7389930024;32386,1527098163;68,4715068702319;164,20604258542
43;397,71;1051,94534559428;26401,3428978613;26422,2916458919;87,7182916906393;162,516009589687
44;368,31;17837,4117455797;30450,0525544338;35289,9271513717;59,638548919928;161,25098559288
45;341,1;10547,9774759141;29203,2165468588;31049,7614405508;70,1406696691846;160,060965595885
46;315,89;10665,6192886566;28134,8826756512;30088,6533095654;69,2388424512235;158,845942598953
47;292,54;12486,6408057171;29311,0725320874;31859,9305020003;66,9257904221436;157,620920602045
48;270,92;9012,3260204548;27736,2005159183;29163,6561383889;71,999461554147;156,375897605189
49;250,9;14388,6542537078;31064,5228792058;34235,0398414467;65,1470849857779;155,180875608206
50;232,36;9767,03497618494;29316,8652832717;30901,0284984743;71,57429210723;153,99085361121
51;215,19;11090,5784352788;35513,1727251605;37204,6551796433;72,656688163835;152,805830614202
52;199,28;32367,3684042343;22092,4124626811;39188,2791895313;34,3155695588049;151,585807617283
53;184,55;12755,7597428602;39555,8339408762;41561,681936319;72,1267963370412;150,365786620363
54;170,92;6523,83639793871;31377,5159524386;32048,5405079952;78,2547193962796;149,110762623532
55;158,28;5413,82040502094;42066,206343762;42413,1485218179;82,6664811070628;147,865739626675
56;146,59;609,293824071999;63830,361048488;63833,2689946582;89,4530987481302;146,575713629932
57;135,75;-5880,85622676539;66922,1741995637;67180,0704789496;95,022026183115;145,310690633126
58;125,72;-22416,1105472926;59238,8704498881;63338,1858300905;110,726745727664;144,170671636004
59;116,43;-24758,4274900946;97384,2822635668;100482,228099163;104,264352953605;142,930646639135
60;107,83;79554,8634341793;45433,1909327881;91614,1426547566;29,7303662928092;141,680623642291
61;99,856;-41320,2954331339;17839,0251666497;45006,6398832198;156,648911043534;140,515605645232
62;92,477;-27826,7383393701;90395,0923977968;94581,1825693356;107,110177028881;137,665551652428
63;85,642;64038,9385177464;151261,299471608;164258,839531756;67,053837535498;136,340524655773
64;79,313;236157,511273526;257405,232676639;349324,811515329;47,4650432971295;135,025501659093
65;73,452;326008,282176873;-186335,538278306;375502,773456312;-29,7508550022688;133,650477662565
66;68,023;304921,866637414;170165,321286864;349189,89292691;29,1642281202061;132,300451665973
67;62,996;-971300,195862759;-945536,266030057;1355530,48687999;-135,770058160444;131,075428669066
68;58,34;110426,960954511;-14700,3077665749;111401,134438035;-7,58277145865164;127,490360678118
69;54,029;15882,0949393726;102797,985534196;104017,627205931;81,2173504136877;126,07533568169
70;50,036;-117071,503982393;191146,08898056;224148,531954291;121,486275827076;99,2548397494056
71;46,338;-23728,1975565093;127675,710302871;129861,904963015;100,528156204032;71,2993208199865
72;42,914;-256478,437842853;-81021,2570805328;268971,435615792;-162,468730532706;69,8592948236222
73;39,742;419703,983475391;160473,135095756;449336,244735023;20,9242733759776;68,419266827258
74;36,805;-69919,1434155551;241507,464847403;251425,02300484;106,146328076277;67,1192428305402
75;34,085;466049,2370657;405902,91605835;618028,372030114;41,0540492764647;65,7192168340749
76;31,566;555740,126947991;-172837,26838964;581996,400370794;-17,275890168167;64,2741908377233
77;29,233;304644,640421961;-243486,089657073;389992,093245899;-38,6334655893992;62,7691618415231
78;27,073;487354,032945448;965414,303060863;1081452,13947853;63,2147459500758;61,2591348453356
79;25,072;507281,328881229;144821,562315541;527548,700636273;15,9332863170064;59,7291058491985
80;23,219;329566,766970402;-22863,3135862095;330358,873044852;-3,96847024612927;58,0690778533897
81;21,503;276553,48920436;-115446,519779525;299682,717753811;-22,6579671477487;56,4440458574925
82;19,914;489309,230082426;142744,986423941;509705,45788036;16,263419908433;54,7390138617973
83;18,442;389059,552257825;-70888,0255789584;395464,849731986;-10,3262175737922;53,0389818660894
84;17,079;628118,9294539;2195,73181908371;628122,767280835;0,200289543629089;51,263949870571
85;15,817;404316,460856936;85249,6723626572;413206,131558837;11,9063540146598;49,5289198749515
86;14,648;213315,539178623;37514,9502864162;216589,221223169;9,97438207478328;47,713885879534
87;13,566;179421,609609492;297378,676150029;347312,814367113;58,8955753636452;45,8488498842428
88;12,563;576603,294404645;81794,5299151276;582375,91317149;8,0738700327734;43,9588158890147
89;11,635;591147,002509313;-39208,2040542;592445,830300882;-3,79462153863328;41,9887798939885
90;10,775;270623,893288808;-61880,0354040278;277608,411977007;-12,8796584749334;39,9287428991896
91;9,9785;530089,22117283;31677,4139563223;531034,877346656;3,41985118533504;37,7536999046811
92;9,241;885979,229235751;-86954,8782989242;890236,117834564;-5,60537118932544;35,5236589103114
93;8,5581;576491,079445453;313833,413157572;656378,988004884;28,5632338512356;33,2986169159291
94;7,9256;569495,36177856;186369,640872884;599214,994911159;18,1208915784209;31,0035769217235
95;7,3399;488635,318947491;8719,29047159436;488713,10699555;1,02228699156491;28,6285299277199
96;6,7974;555227,868154249;-128199,13690251;569835,945055821;-13,001438536764;26,2734869336658
97;6,2951;349393,284160611;-23569,0122791398;350187,328948881;-3,85915314597061;23,8984429396622
98;5,8299;378222,546092262;180423,93602628;419052,611331475;25,5025959585848;21,4984009457218
99;5,399;475751,684042521;145654,42095838;497548,867161825;17,0223039609268;19,1583549516298
100;5;536452,158841783;-899186,543768031;1047051,74619954;-59,1798168408288;16,8633169574242
